Title: circuit172793484
Date: Tue Apr 26 03:37:03  2011
Plotname: Transient Analysis
Flags: real
No. Variables: 26
No. Points: 109     
Variables:
	0	time	time
	1	v(1)	voltage
	2	v(2)	voltage
	3	v(3)	voltage
	4	v(85)	voltage
	5	v(x172777420.5)	voltage
	6	v(x172777420.7)	voltage
	7	v(x172777420.6)	voltage
	8	v(81)	voltage
	9	v(x172777420.8)	voltage
	10	v(84)	voltage
	11	v(x172777420.4)	voltage
	12	v(89)	voltage
	13	v(x172777420.100)	voltage
	14	v(x172777420.10)	voltage
	15	v(x172777420.80)	voltage
	16	v(80)	voltage
	17	v(x172777420.103)	voltage
	18	v(112)	voltage
	19	v(77)	voltage
	20	i(e.x172777420.eref)	current
	21	i(e.x172777420.eout)	current
	22	i(v172658572)	current
	23	i(v3)	current
	24	i(v2)	current
	25	i(v1)	current
Values:
0		0.000000000000000e+00
	2.500000000000000e+00
	2.500000000000000e+00
	5.000000000000000e+00
	0.000000000000000e+00
	-4.774404504427214e-02
	-7.562801728350992e-01
	-4.774404504427212e-02
	-1.000060454627894e-17
	-7.562801728350992e-01
	-1.999959997581798e-12
	-7.781751728350992e-01
	9.999999999999850e-13
	-4.999799987909068e-13
	1.884714606603666e-12
	1.884714606603666e-12
	2.499999999975000e+00
	-4.999799987909068e-13
	-9.999799987908990e-13
	-1.000060454627894e-17
	2.499999999973115e-02
	2.499999999973115e-02
	-1.000060454627891e-08
	0.000000000000000e+00
	0.000000000000000e+00
	-2.499979734420776e-02
1		5.000000000000000e-05
	2.500000000000000e+00
	2.500000000000000e+00
	5.000000000000000e+00
	0.000000000000000e+00
	-4.774404504427190e-02
	-7.562801649617700e-01
	-4.774404504427186e-02
	-1.000060454672452e-17
	-7.562801649617700e-01
	-1.999959997581787e-12
	-7.781751649617700e-01
	9.999999999999850e-13
	-4.999799987909013e-13
	1.888480691270011e-12
	1.888480691270011e-12
	2.499999999975000e+00
	-4.999799987909013e-13
	-9.999799987908935e-13
	-1.000060454672452e-17
	2.499999999973111e-02
	2.499999999973112e-02
	-1.000060454672454e-08
	0.000000000000000e+00
	0.000000000000000e+00
	-2.499979734420776e-02
2		1.000000000000000e-04
	2.500000000000000e+00
	2.500000000000000e+00
	5.000000000000000e+00
	0.000000000000000e+00
	-4.774404504427187e-02
	-7.562801649617700e-01
	-4.774404504427188e-02
	-1.000060454742612e-17
	-7.562801649617700e-01
	-1.999959997581786e-12
	-7.781751649617700e-01
	9.999999999999850e-13
	-4.999799987909007e-13
	1.878805271082751e-12
	1.878805271082751e-12
	2.499999999975000e+00
	-4.999799987909007e-13
	-9.999799987908929e-13
	-1.000060454742612e-17
	2.499999999973121e-02
	2.499999999973121e-02
	-1.000060454742610e-08
	0.000000000000000e+00
	0.000000000000000e+00
	-2.499979734420776e-02
3		2.000000000000000e-04
	2.500000000000000e+00
	2.500000000000000e+00
	5.000000000000000e+00
	0.000000000000000e+00
	-4.774404504427190e-02
	-7.562801649617689e-01
	-4.774404504427206e-02
	-1.000060454619346e-17
	-7.562801649617689e-01
	-1.999959997581791e-12
	-7.781751649617689e-01
	9.999999999999850e-13
	-4.999799987909033e-13
	1.811251669481262e-12
	1.811251669481262e-12
	2.499999999975000e+00
	-4.999799987909033e-13
	-9.999799987908955e-13
	-1.000060454619346e-17
	2.499999999973188e-02
	2.499999999973189e-02
	-1.000060454619348e-08
	0.000000000000000e+00
	0.000000000000000e+00
	-2.499979734420776e-02
4		4.000000000000000e-04
	2.500000000000000e+00
	2.500000000000000e+00
	5.000000000000000e+00
	0.000000000000000e+00
	-4.774404504427217e-02
	-7.562801649617689e-01
	-4.774404504427214e-02
	-1.000060454615610e-17
	-7.562801649617689e-01
	-1.999959997581798e-12
	-7.781751649617689e-01
	9.999999999999850e-13
	-4.999799987909066e-13
	1.699751450701115e-12
	1.699751450701115e-12
	2.499999999975000e+00
	-4.999799987909066e-13
	-9.999799987908988e-13
	-1.000060454615610e-17
	2.499999999973300e-02
	2.499999999973300e-02
	-1.000060454615608e-08
	0.000000000000000e+00
	0.000000000000000e+00
	-2.499979734420776e-02
5		8.000000000000000e-04
	2.500000000000000e+00
	2.500000000000000e+00
	5.000000000000000e+00
	0.000000000000000e+00
	-4.774404504427165e-02
	-7.562801649617686e-01
	-4.774404504427166e-02
	-1.000060454618084e-17
	-7.562801649617686e-01
	-1.999959997581777e-12
	-7.781751649617686e-01
	9.999999999999850e-13
	-4.999799987908961e-13
	1.669841348528323e-12
	1.669841348528323e-12
	2.499999999975000e+00
	-4.999799987908961e-13
	-9.999799987908883e-13
	-1.000060454618084e-17
	2.499999999973330e-02
	2.499999999973330e-02
	-1.000060454618086e-08
	0.000000000000000e+00
	0.000000000000000e+00
	-2.499979734420776e-02
6		1.600000000000000e-03
	2.500000000000000e+00
	2.500000000000000e+00
	5.000000000000000e+00
	0.000000000000000e+00
	-4.774404504427232e-02
	-7.562801649617690e-01
	-4.774404504427211e-02
	-1.000060454617370e-17
	-7.562801649617689e-01
	-1.999959997581800e-12
	-7.781751649617690e-01
	9.999999999999850e-13
	-4.999799987909074e-13
	2.050047631652063e-12
	2.050047631652063e-12
	2.499999999975000e+00
	-4.999799987909074e-13
	-9.999799987908996e-13
	-1.000060454617369e-17
	2.499999999972950e-02
	2.499999999972950e-02
	-1.000060454617374e-08
	0.000000000000000e+00
	0.000000000000000e+00
	-2.499979734420776e-02
7		3.200000000000000e-03
	2.500000000000000e+00
	2.500000000000000e+00
	5.000000000000000e+00
	0.000000000000000e+00
	-4.774404504427170e-02
	-7.562801649617686e-01
	-4.774404504427181e-02
	-1.000060454618610e-17
	-7.562801649617686e-01
	-1.999959997581783e-12
	-7.781751649617686e-01
	9.999999999999850e-13
	-4.999799987908991e-13
	2.280786670638690e-12
	2.280786670638690e-12
	2.499999999975000e+00
	-4.999799987908991e-13
	-9.999799987908913e-13
	-1.000060454618610e-17
	2.499999999972719e-02
	2.499999999972719e-02
	-1.000060454619027e-08
	0.000000000000000e+00
	0.000000000000000e+00
	-2.499979734420776e-02
8		6.400000000000000e-03
	2.500000000000000e+00
	2.500000000000000e+00
	5.000000000000000e+00
	0.000000000000000e+00
	-4.774404504427197e-02
	-7.562801649617688e-01
	-4.774404504427211e-02
	-1.000060454617370e-17
	-7.562801649617689e-01
	-1.999959997581792e-12
	-7.781751649617688e-01
	9.999999999999850e-13
	-4.999799987909035e-13
	-4.999334279887080e-13
	-4.999334279887080e-13
	2.499999999975000e+00
	-4.999799987909035e-13
	-9.999799987908957e-13
	-1.000060454617369e-17
	2.499999999975500e-02
	2.499999999975500e-02
	-1.000060454617161e-08
	0.000000000000000e+00
	0.000000000000000e+00
	-2.499979734420776e-02
9		1.280000000000000e-02
	2.500000000000000e+00
	2.500000000000000e+00
	5.000000000000000e+00
	0.000000000000000e+00
	-4.774404504427208e-02
	-7.562801649617688e-01
	-4.774404504427181e-02
	-1.000060454618610e-17
	-7.562801649617686e-01
	-1.999959997581789e-12
	-7.781751649617688e-01
	9.999999999999850e-13
	-4.999799987909019e-13
	1.709576924469047e-12
	1.709576924469047e-12
	2.499999999975000e+00
	-4.999799987909019e-13
	-9.999799987908941e-13
	-1.000060454618610e-17
	2.499999999973290e-02
	2.499999999973290e-02
	-1.000060454618306e-08
	0.000000000000000e+00
	0.000000000000000e+00
	-2.499979734420776e-02
10		2.280000000000000e-02
	2.500000000000000e+00
	2.500000000000000e+00
	5.000000000000000e+00
	0.000000000000000e+00
	-4.774404504427213e-02
	-7.562801649617689e-01
	-4.774404504427225e-02
	-1.000060454617482e-17
	-7.562801649617690e-01
	-1.999959997581798e-12
	-7.781751649617690e-01
	9.999999999999850e-13
	-4.999799987909068e-13
	4.202749259718530e-12
	4.202749259718530e-12
	2.499999999975000e+00
	-4.999799987909068e-13
	-9.999799987908990e-13
	-1.000060454617482e-17
	2.499999999970797e-02
	2.499999999970797e-02
	-1.000060454617994e-08
	0.000000000000000e+00
	0.000000000000000e+00
	-2.499979734420776e-02
11		3.280000000000000e-02
	2.500000000000000e+00
	2.500000000000000e+00
	5.000000000000000e+00
	0.000000000000000e+00
	-4.774404504427208e-02
	-7.562801649617688e-01
	-4.774404504427181e-02
	-1.000060454618610e-17
	-7.562801649617686e-01
	-1.999959997581789e-12
	-7.781751649617688e-01
	9.999999999999850e-13
	-4.999799987909019e-13
	5.557887483575996e-12
	5.557887483575996e-12
	2.499999999975000e+00
	-4.999799987909019e-13
	-9.999799987908941e-13
	-1.000060454618610e-17
	2.499999999969442e-02
	2.499999999969442e-02
	-1.000060454618306e-08
	0.000000000000000e+00
	0.000000000000000e+00
	-2.499979734420776e-02
12		4.280000000000000e-02
	2.500000000000000e+00
	2.500000000000000e+00
	5.000000000000000e+00
	0.000000000000000e+00
	-4.774404504427218e-02
	-7.562801649617690e-01
	-4.774404504427225e-02
	-1.000060454617482e-17
	-7.562801649617690e-01
	-1.999959997581801e-12
	-7.781751649617690e-01
	9.999999999999850e-13
	-4.999799987909082e-13
	7.385980715923779e-12
	7.385980715923779e-12
	2.499999999975000e+00
	-4.999799987909082e-13
	-9.999799987909004e-13
	-1.000060454617482e-17
	2.499999999967614e-02
	2.499999999967614e-02
	-1.000060454617895e-08
	0.000000000000000e+00
	0.000000000000000e+00
	-2.499979734420776e-02
13		5.280000000000001e-02
	2.500000000000000e+00
	2.500000000000000e+00
	5.000000000000000e+00
	0.000000000000000e+00
	-4.774404504427178e-02
	-7.562801649617688e-01
	-4.774404504427202e-02
	-1.000060454618614e-17
	-7.562801649617688e-01
	-1.999959997581787e-12
	-7.781751649617688e-01
	9.999999999999850e-13
	-4.999799987909011e-13
	-3.799960346384523e-12
	-3.799960346384523e-12
	2.499999999975000e+00
	-4.999799987909011e-13
	-9.999799987908933e-13
	-1.000060454618614e-17
	2.499999999978800e-02
	2.499999999978800e-02
	-1.000060454618511e-08
	0.000000000000000e+00
	0.000000000000000e+00
	-2.499979734420776e-02
14		6.280000000000001e-02
	2.500000000000000e+00
	2.500000000000000e+00
	5.000000000000000e+00
	0.000000000000000e+00
	-4.774404504427209e-02
	-7.562801649617689e-01
	-4.774404504427228e-02
	-1.000060454617791e-17
	-7.562801649617689e-01
	-1.999959997581800e-12
	-7.781751649617689e-01
	9.999999999999850e-13
	-4.999799987909074e-13
	-1.237698832312617e-11
	-1.237698832312617e-11
	2.499999999975000e+00
	-4.999799987909074e-13
	-9.999799987908996e-13
	-1.000060454617791e-17
	2.499999999987377e-02
	2.499999999987377e-02
	-1.000060454617790e-08
	0.000000000000000e+00
	0.000000000000000e+00
	-2.499979734420776e-02
15		7.280000000000000e-02
	2.500000000000000e+00
	2.500000000000000e+00
	5.000000000000000e+00
	0.000000000000000e+00
	-4.774404504427216e-02
	-7.562801649617689e-01
	-4.774404504427211e-02
	-1.000060454618305e-17
	-7.562801649617688e-01
	-1.999959997581795e-12
	-7.781751649617688e-01
	9.999999999999850e-13
	-4.999799987909051e-13
	-1.021494000497114e-11
	-1.021494000497114e-11
	2.499999999975000e+00
	-4.999799987909051e-13
	-9.999799987908974e-13
	-1.000060454618305e-17
	2.499999999985215e-02
	2.499999999985215e-02
	-1.000060454618311e-08
	0.000000000000000e+00
	0.000000000000000e+00
	-2.499979734420776e-02
16		8.280000000000000e-02
	2.500000000000000e+00
	2.500000000000000e+00
	5.000000000000000e+00
	0.000000000000000e+00
	-4.774404504427165e-02
	-7.562801649617686e-01
	-4.774404504427169e-02
	-1.000060454617883e-17
	-7.562801649617686e-01
	-1.999959997581777e-12
	-7.781751649617686e-01
	9.999999999999850e-13
	-4.999799987908961e-13
	-5.326183938336726e-12
	-5.326183938336726e-12
	2.499999999975000e+00
	-4.999799987908961e-13
	-9.999799987908883e-13
	-1.000060454617883e-17
	2.499999999980326e-02
	2.499999999980326e-02
	-1.000060454618086e-08
	0.000000000000000e+00
	0.000000000000000e+00
	-2.499979734420776e-02
17		9.279999999999999e-02
	2.500000000000000e+00
	2.500000000000000e+00
	5.000000000000000e+00
	0.000000000000000e+00
	-4.774404504427234e-02
	-7.562801649617690e-01
	-4.774404504427228e-02
	-1.000060454617791e-17
	-7.562801649617689e-01
	-1.999959997581805e-12
	-7.781751649617690e-01
	9.999999999999850e-13
	-4.999799987909102e-13
	-2.372546603623960e-12
	-2.372546603623960e-12
	2.499999999975000e+00
	-4.999799987909102e-13
	-9.999799987909024e-13
	-1.000060454617791e-17
	2.499999999977372e-02
	2.499999999977372e-02
	-1.000060454617690e-08
	0.000000000000000e+00
	0.000000000000000e+00
	-2.499979734420776e-02
18		1.028000000000000e-01
	2.500000000000000e+00
	2.500000000000000e+00
	5.000000000000000e+00
	0.000000000000000e+00
	-4.774404504427163e-02
	-7.562801649617686e-01
	-4.774404504427169e-02
	-1.000060454618397e-17
	-7.562801649617685e-01
	-1.999959997581776e-12
	-7.781751649617685e-01
	9.999999999999850e-13
	-4.999799987908957e-13
	-1.233457780358549e-12
	-1.233457780358549e-12
	2.499999999975000e+00
	-4.999799987908957e-13
	-9.999799987908879e-13
	-1.000060454618397e-17
	2.499999999976233e-02
	2.499999999976233e-02
	-1.000060454618610e-08
	0.000000000000000e+00
	0.000000000000000e+00
	-2.499979734420776e-02
19		1.128000000000000e-01
	2.500000000000000e+00
	2.500000000000000e+00
	5.000000000000000e+00
	0.000000000000000e+00
	-4.774404504427199e-02
	-7.562801649617689e-01
	-4.774404504427211e-02
	-1.000060454617370e-17
	-7.562801649617689e-01
	-1.999959997581793e-12
	-7.781751649617689e-01
	9.999999999999850e-13
	-4.999799987909039e-13
	-4.985345469776803e-12
	-4.985345469776803e-12
	2.499999999975000e+00
	-4.999799987909039e-13
	-9.999799987908962e-13
	-1.000060454617369e-17
	2.499999999979985e-02
	2.499999999979985e-02
	-1.000060454617478e-08
	0.000000000000000e+00
	0.000000000000000e+00
	-2.499979734420776e-02
20		1.228000000000000e-01
	2.500000000000000e+00
	2.500000000000000e+00
	5.000000000000000e+00
	0.000000000000000e+00
	-4.774404504427175e-02
	-7.562801649617686e-01
	-4.774404504427166e-02
	-1.000060454618506e-17
	-7.562801649617686e-01
	-1.999959997581781e-12
	-7.781751649617686e-01
	9.999999999999850e-13
	-4.999799987908979e-13
	-3.525846281604572e-12
	-3.525846281604572e-12
	2.499999999975000e+00
	-4.999799987908979e-13
	-9.999799987908901e-13
	-1.000060454618506e-17
	2.499999999978526e-02
	2.499999999978526e-02
	-1.000060454618402e-08
	0.000000000000000e+00
	0.000000000000000e+00
	-2.499979734420776e-02
21		1.328000000000000e-01
	2.500000000000000e+00
	2.500000000000000e+00
	5.000000000000000e+00
	0.000000000000000e+00
	-4.774404504427242e-02
	-7.562801649617690e-01
	-4.774404504427256e-02
	-1.000060454617691e-17
	-7.562801649617690e-01
	-1.999959997581812e-12
	-7.781751649617690e-01
	9.999999999999850e-13
	-4.999799987909134e-13
	-3.095745881864786e-12
	-3.095745881864786e-12
	2.499999999975000e+00
	-4.999799987909134e-13
	-9.999799987909056e-13
	-1.000060454617691e-17
	2.499999999978096e-02
	2.499999999978096e-02
	-1.000060454617690e-08
	0.000000000000000e+00
	0.000000000000000e+00
	-2.499979734420776e-02
22		1.428000000000000e-01
	2.500000000000000e+00
	2.500000000000000e+00
	5.000000000000000e+00
	0.000000000000000e+00
	-4.774404504427179e-02
	-7.562801649617688e-01
	-4.774404504427202e-02
	-1.000060454618614e-17
	-7.562801649617688e-01
	-1.999959997581786e-12
	-7.781751649617688e-01
	9.999999999999850e-13
	-4.999799987909005e-13
	-1.062117060968149e-11
	-1.062117060968149e-11
	2.499999999975000e+00
	-4.999799987909005e-13
	-9.999799987908927e-13
	-1.000060454618614e-17
	2.499999999985621e-02
	2.499999999985621e-02
	-1.000060454618615e-08
	0.000000000000000e+00
	0.000000000000000e+00
	-2.499979734420776e-02
23		1.528000000000000e-01
	2.500000000000000e+00
	2.500000000000000e+00
	5.000000000000000e+00
	0.000000000000000e+00
	-4.774404504427209e-02
	-7.562801649617689e-01
	-4.774404504427228e-02
	-1.000060454617791e-17
	-7.562801649617689e-01
	-1.999959997581800e-12
	-7.781751649617689e-01
	9.999999999999850e-13
	-4.999799987909074e-13
	-1.578759345477465e-11
	-1.578759345477465e-11
	2.499999999975000e+00
	-4.999799987909074e-13
	-9.999799987908996e-13
	-1.000060454617791e-17
	2.499999999990788e-02
	2.499999999990788e-02
	-1.000060454617790e-08
	0.000000000000000e+00
	0.000000000000000e+00
	-2.499979734420776e-02
24		1.628000000000000e-01
	2.500000000000000e+00
	2.500000000000000e+00
	5.000000000000000e+00
	0.000000000000000e+00
	-4.774404504427216e-02
	-7.562801649617689e-01
	-4.774404504427211e-02
	-1.000060454618305e-17
	-7.562801649617688e-01
	-1.999959997581795e-12
	-7.781751649617688e-01
	9.999999999999850e-13
	-4.999799987909051e-13
	-1.180655573307376e-11
	-1.180655573307376e-11
	2.499999999975000e+00
	-4.999799987909051e-13
	-9.999799987908974e-13
	-1.000060454618305e-17
	2.499999999986807e-02
	2.499999999986807e-02
	-1.000060454618311e-08
	0.000000000000000e+00
	0.000000000000000e+00
	-2.499979734420776e-02
25		1.728000000000000e-01
	2.500000000000000e+00
	2.500000000000000e+00
	5.000000000000000e+00
	0.000000000000000e+00
	-4.774404504427165e-02
	-7.562801649617686e-01
	-4.774404504427169e-02
	-1.000060454617883e-17
	-7.562801649617686e-01
	-1.999959997581777e-12
	-7.781751649617686e-01
	9.999999999999850e-13
	-4.999799987908961e-13
	-6.008304964666422e-12
	-6.008304964666422e-12
	2.499999999975000e+00
	-4.999799987908961e-13
	-9.999799987908883e-13
	-1.000060454617883e-17
	2.499999999981008e-02
	2.499999999981008e-02
	-1.000060454618086e-08
	0.000000000000000e+00
	0.000000000000000e+00
	-2.499979734420776e-02
26		1.828000000000000e-01
	2.500000000000000e+00
	2.500000000000000e+00
	5.000000000000000e+00
	0.000000000000000e+00
	-4.774404504427234e-02
	-7.562801649617690e-01
	-4.774404504427228e-02
	-1.000060454617791e-17
	-7.562801649617689e-01
	-1.999959997581805e-12
	-7.781751649617690e-01
	9.999999999999850e-13
	-4.999799987909102e-13
	-2.599920279067192e-12
	-2.599920279067192e-12
	2.499999999975000e+00
	-4.999799987909102e-13
	-9.999799987909024e-13
	-1.000060454617791e-17
	2.499999999977600e-02
	2.499999999977600e-02
	-1.000060454617690e-08
	0.000000000000000e+00
	0.000000000000000e+00
	-2.499979734420776e-02
27		1.928000000000000e-01
	2.500000000000000e+00
	2.500000000000000e+00
	5.000000000000000e+00
	0.000000000000000e+00
	-4.774404504427163e-02
	-7.562801649617686e-01
	-4.774404504427169e-02
	-1.000060454618397e-17
	-7.562801649617685e-01
	-1.999959997581776e-12
	-7.781751649617685e-01
	9.999999999999850e-13
	-4.999799987908957e-13
	-1.460831455801781e-12
	-1.460831455801781e-12
	2.499999999975000e+00
	-4.999799987908957e-13
	-9.999799987908879e-13
	-1.000060454618397e-17
	2.499999999976461e-02
	2.499999999976461e-02
	-1.000060454618610e-08
	0.000000000000000e+00
	0.000000000000000e+00
	-2.499979734420776e-02
28		2.028000000000000e-01
	2.500000000000000e+00
	2.500000000000000e+00
	5.000000000000000e+00
	0.000000000000000e+00
	-4.774404504427199e-02
	-7.562801649617689e-01
	-4.774404504427211e-02
	-1.000060454617370e-17
	-7.562801649617689e-01
	-1.999959997581793e-12
	-7.781751649617689e-01
	9.999999999999850e-13
	-4.999799987909039e-13
	-5.212719145220035e-12
	-5.212719145220035e-12
	2.499999999975000e+00
	-4.999799987909039e-13
	-9.999799987908962e-13
	-1.000060454617369e-17
	2.499999999980212e-02
	2.499999999980213e-02
	-1.000060454617478e-08
	0.000000000000000e+00
	0.000000000000000e+00
	-2.499979734420776e-02
29		2.128000000000000e-01
	2.500000000000000e+00
	2.500000000000000e+00
	5.000000000000000e+00
	0.000000000000000e+00
	-4.774404504427175e-02
	-7.562801649617686e-01
	-4.774404504427166e-02
	-1.000060454618506e-17
	-7.562801649617686e-01
	-1.999959997581781e-12
	-7.781751649617686e-01
	9.999999999999850e-13
	-4.999799987908979e-13
	-3.753219957047804e-12
	-3.753219957047804e-12
	2.499999999975000e+00
	-4.999799987908979e-13
	-9.999799987908901e-13
	-1.000060454618506e-17
	2.499999999978754e-02
	2.499999999978753e-02
	-1.000060454618402e-08
	0.000000000000000e+00
	0.000000000000000e+00
	-2.499979734420776e-02
30		2.228000000000001e-01
	2.500000000000000e+00
	2.500000000000000e+00
	5.000000000000000e+00
	0.000000000000000e+00
	-4.774404504427242e-02
	-7.562801649617690e-01
	-4.774404504427256e-02
	-1.000060454617691e-17
	-7.562801649617690e-01
	-1.999959997581812e-12
	-7.781751649617690e-01
	9.999999999999850e-13
	-4.999799987909134e-13
	-3.550493232751251e-12
	-3.550493232751251e-12
	2.499999999975000e+00
	-4.999799987909134e-13
	-9.999799987909056e-13
	-1.000060454617691e-17
	2.499999999978551e-02
	2.499999999978551e-02
	-1.000060454617690e-08
	0.000000000000000e+00
	0.000000000000000e+00
	-2.499979734420776e-02
31		2.328000000000001e-01
	2.500000000000000e+00
	2.500000000000000e+00
	5.000000000000000e+00
	0.000000000000000e+00
	-4.774404504427179e-02
	-7.562801649617688e-01
	-4.774404504427202e-02
