Title: circuit149199212
Date: Tue Apr 26 01:03:25  2011
Plotname: Transient Analysis
Flags: real
No. Variables: 11
No. Points: 1008    
Variables:
	0	time	time
	1	v(1)	voltage
	2	v(2)	voltage
	3	v(3)	voltage
	4	v(24)	voltage
	5	v(5)	voltage
	6	v(37)	voltage
	7	i(v148809580)	current
	8	i(v3)	current
	9	i(v2)	current
	10	i(v1)	current
Values:
0		0.000000000000000e+00
	2.500000000000000e+00
	2.500000000000000e+00
	5.000000000000000e+00
	1.000000000000000e+01
	9.999999999999002e-13
	0.000000000000000e+00
	-9.999999999999001e-04
	0.000000000000000e+00
	0.000000000000000e+00
	0.000000000000000e+00
1		1.000000000000000e-05
	2.500000000000000e+00
	2.500000000000000e+00
	5.000000000000000e+00
	1.000000000000000e+01
	9.999999999999002e-13
	-5.421010862427522e-20
	-1.000000018393621e-03
	0.000000000000000e+00
	0.000000000000000e+00
	0.000000000000000e+00
2		2.000000000000000e-05
	2.500000000000000e+00
	2.500000000000000e+00
	5.000000000000000e+00
	1.000000000000000e+01
	9.999999999999002e-13
	-5.421010862427522e-20
	-1.000000018393621e-03
	0.000000000000000e+00
	0.000000000000000e+00
	0.000000000000000e+00
3		4.000000000000000e-05
	2.500000000000000e+00
	2.500000000000000e+00
	5.000000000000000e+00
	1.000000000000000e+01
	9.999999999999002e-13
	-5.421010862427522e-20
	-1.000000018393621e-03
	0.000000000000000e+00
	0.000000000000000e+00
	0.000000000000000e+00
4		8.000000000000001e-05
	2.500000000000000e+00
	2.500000000000000e+00
	5.000000000000000e+00
	1.000000000000000e+01
	9.999999999999002e-13
	0.000000000000000e+00
	-9.999999601859599e-04
	0.000000000000000e+00
	0.000000000000000e+00
	0.000000000000000e+00
5		1.600000000000000e-04
	2.500000000000000e+00
	2.500000000000000e+00
	5.000000000000000e+00
	1.000000000000000e+01
	9.999999999999002e-13
	-1.355252715606881e-20
	-1.000000003841706e-03
	0.000000000000000e+00
	0.000000000000000e+00
	0.000000000000000e+00
6		3.200000000000000e-04
	2.500000000000000e+00
	2.500000000000000e+00
	5.000000000000000e+00
	1.000000000000000e+01
	9.999999999999002e-13
	-1.694065894508601e-20
	-9.999999892897904e-04
	0.000000000000000e+00
	0.000000000000000e+00
	0.000000000000000e+00
7		6.400000000000001e-04
	2.500000000000000e+00
	2.500000000000000e+00
	5.000000000000000e+00
	1.000000000000000e+01
	9.999999999999002e-13
	0.000000000000000e+00
	-1.000000000203727e-03
	0.000000000000000e+00
	0.000000000000000e+00
	0.000000000000000e+00
8		1.280000000000000e-03
	2.500000000000000e+00
	2.500000000000000e+00
	5.000000000000000e+00
	1.000000000000000e+01
	9.999999999999002e-13
	-5.082197683525802e-21
	-1.000000001113222e-03
	0.000000000000000e+00
	0.000000000000000e+00
	0.000000000000000e+00
9		2.280000000000000e-03
	2.500000000000000e+00
	2.500000000000000e+00
	5.000000000000000e+00
	1.000000000000000e+01
	9.999999999999002e-13
	-2.541098841762901e-21
	-9.999999997489795e-04
	0.000000000000000e+00
	0.000000000000000e+00
	0.000000000000000e+00
10		3.280000000000000e-03
	2.500000000000000e+00
	2.500000000000000e+00
	5.000000000000000e+00
	1.000000000000000e+01
	9.999999999999002e-13
	-2.541098841762901e-21
	-9.999999997489795e-04
	0.000000000000000e+00
	0.000000000000000e+00
	0.000000000000000e+00
11		4.280000000000000e-03
	2.500000000000000e+00
	2.500000000000000e+00
	5.000000000000000e+00
	1.000000000000000e+01
	9.999999999999002e-13
	-2.541098841762901e-21
	-9.999999997489795e-04
	0.000000000000000e+00
	0.000000000000000e+00
	0.000000000000000e+00
12		5.280000000000000e-03
	2.500000000000000e+00
	2.500000000000000e+00
	5.000000000000000e+00
	1.000000000000000e+01
	9.999999999999002e-13
	-2.541098841762901e-21
	-9.999999997489795e-04
	0.000000000000000e+00
	0.000000000000000e+00
	0.000000000000000e+00
13		6.280000000000000e-03
	2.500000000000000e+00
	2.500000000000000e+00
	5.000000000000000e+00
	1.000000000000000e+01
	9.999999999999002e-13
	-2.541098841762901e-21
	-9.999999997489795e-04
	0.000000000000000e+00
	0.000000000000000e+00
	0.000000000000000e+00
14		7.280000000000000e-03
	2.500000000000000e+00
	2.500000000000000e+00
	5.000000000000000e+00
	1.000000000000000e+01
	9.999999999999002e-13
	-2.541098841762901e-21
	-9.999999997489795e-04
	0.000000000000000e+00
	0.000000000000000e+00
	0.000000000000000e+00
15		8.279999999999999e-03
	2.500000000000000e+00
	2.500000000000000e+00
	5.000000000000000e+00
	1.000000000000000e+01
	9.999999999999002e-13
	-2.541098841762901e-21
	-9.999999997489795e-04
	0.000000000000000e+00
	0.000000000000000e+00
	0.000000000000000e+00
16		9.280000000000000e-03
	2.500000000000000e+00
	2.500000000000000e+00
	5.000000000000000e+00
	1.000000000000000e+01
	9.999999999999002e-13
	-2.541098841762901e-21
	-9.999999997489795e-04
	0.000000000000000e+00
	0.000000000000000e+00
	0.000000000000000e+00
17		1.028000000000000e-02
	2.500000000000000e+00
	2.500000000000000e+00
	5.000000000000000e+00
	1.000000000000000e+01
	9.999999999999002e-13
	-2.541098841762901e-21
	-9.999999997489795e-04
	0.000000000000000e+00
	0.000000000000000e+00
	0.000000000000000e+00
18		1.128000000000000e-02
	2.500000000000000e+00
	2.500000000000000e+00
	5.000000000000000e+00
	1.000000000000000e+01
	9.999999999999002e-13
	-2.541098841762901e-21
	-9.999999997489795e-04
	0.000000000000000e+00
	0.000000000000000e+00
	0.000000000000000e+00
19		1.228000000000000e-02
	2.500000000000000e+00
	2.500000000000000e+00
	5.000000000000000e+00
	1.000000000000000e+01
	9.999999999999002e-13
	-2.541098841762901e-21
	-9.999999997489795e-04
	0.000000000000000e+00
	0.000000000000000e+00
	0.000000000000000e+00
20		1.328000000000000e-02
	2.500000000000000e+00
	2.500000000000000e+00
	5.000000000000000e+00
	1.000000000000000e+01
	9.999999999999002e-13
	-2.541098841762901e-21
	-9.999999997489795e-04
	0.000000000000000e+00
	0.000000000000000e+00
	0.000000000000000e+00
21		1.428000000000000e-02
	2.500000000000000e+00
	2.500000000000000e+00
	5.000000000000000e+00
	1.000000000000000e+01
	9.999999999999002e-13
	-2.541098841762901e-21
	-9.999999997489795e-04
	0.000000000000000e+00
	0.000000000000000e+00
	0.000000000000000e+00
22		1.528000000000001e-02
	2.500000000000000e+00
	2.500000000000000e+00
	5.000000000000000e+00
	1.000000000000000e+01
	9.999999999999002e-13
	-2.541098841762901e-21
	-9.999999997489795e-04
	0.000000000000000e+00
	0.000000000000000e+00
	0.000000000000000e+00
23		1.628000000000001e-02
	2.500000000000000e+00
	2.500000000000000e+00
	5.000000000000000e+00
	1.000000000000000e+01
	9.999999999999002e-13
	-2.541098841762901e-21
	-9.999999997489795e-04
	0.000000000000000e+00
	0.000000000000000e+00
	0.000000000000000e+00
24		1.728000000000001e-02
	2.500000000000000e+00
	2.500000000000000e+00
	5.000000000000000e+00
	1.000000000000000e+01
	9.999999999999002e-13
	-2.541098841762901e-21
	-9.999999997489795e-04
	0.000000000000000e+00
	0.000000000000000e+00
	0.000000000000000e+00
25		1.828000000000001e-02
	2.500000000000000e+00
	2.500000000000000e+00
	5.000000000000000e+00
	1.000000000000000e+01
	9.999999999999002e-13
	-2.541098841762901e-21
	-9.999999997489795e-04
	0.000000000000000e+00
	0.000000000000000e+00
	0.000000000000000e+00
26		1.928000000000001e-02
	2.500000000000000e+00
	2.500000000000000e+00
	5.000000000000000e+00
	1.000000000000000e+01
	9.999999999999002e-13
	-2.541098841762901e-21
	-9.999999997489795e-04
	0.000000000000000e+00
	0.000000000000000e+00
	0.000000000000000e+00
27		2.028000000000001e-02
	2.500000000000000e+00
	2.500000000000000e+00
	5.000000000000000e+00
	1.000000000000000e+01
	9.999999999999002e-13
	-2.541098841762901e-21
	-9.999999997489795e-04
	0.000000000000000e+00
	0.000000000000000e+00
	0.000000000000000e+00
28		2.128000000000001e-02
	2.500000000000000e+00
	2.500000000000000e+00
	5.000000000000000e+00
	1.000000000000000e+01
	9.999999999999002e-13
	-2.541098841762901e-21
	-9.999999997489795e-04
	0.000000000000000e+00
	0.000000000000000e+00
	0.000000000000000e+00
29		2.228000000000001e-02
	2.500000000000000e+00
	2.500000000000000e+00
	5.000000000000000e+00
	1.000000000000000e+01
	9.999999999999002e-13
	-2.541098841762901e-21
	-9.999999997489795e-04
	0.000000000000000e+00
	0.000000000000000e+00
	0.000000000000000e+00
30		2.328000000000001e-02
	2.500000000000000e+00
	2.500000000000000e+00
	5.000000000000000e+00
	1.000000000000000e+01
	9.999999999999002e-13
	-2.541098841762901e-21
	-9.999999997489795e-04
	0.000000000000000e+00
	0.000000000000000e+00
	0.000000000000000e+00
31		2.428000000000001e-02
	2.500000000000000e+00
	2.500000000000000e+00
	5.000000000000000e+00
	1.000000000000000e+01
	9.999999999999002e-13
	-2.541098841762901e-21
	-9.999999997489795e-04
	0.000000000000000e+00
	0.000000000000000e+00
	0.000000000000000e+00
32		2.528000000000001e-02
	2.500000000000000e+00
	2.500000000000000e+00
	5.000000000000000e+00
	1.000000000000000e+01
	9.999999999999002e-13
	-2.541098841762901e-21
	-9.999999997489795e-04
	0.000000000000000e+00
	0.000000000000000e+00
	0.000000000000000e+00
33		2.628000000000002e-02
	2.500000000000000e+00
	2.500000000000000e+00
	5.000000000000000e+00
	1.000000000000000e+01
	9.999999999999002e-13
	-2.541098841762901e-21
	-9.999999997489795e-04
	0.000000000000000e+00
	0.000000000000000e+00
	0.000000000000000e+00
34		2.728000000000002e-02
	2.500000000000000e+00
	2.500000000000000e+00
	5.000000000000000e+00
	1.000000000000000e+01
	9.999999999999002e-13
	-2.541098841762901e-21
	-9.999999997489795e-04
	0.000000000000000e+00
	0.000000000000000e+00
	0.000000000000000e+00
35		2.828000000000002e-02
	2.500000000000000e+00
	2.500000000000000e+00
	5.000000000000000e+00
	1.000000000000000e+01
	9.999999999999002e-13
	-2.541098841762901e-21
	-9.999999997489795e-04
	0.000000000000000e+00
	0.000000000000000e+00
	0.000000000000000e+00
36		2.928000000000002e-02
	2.500000000000000e+00
	2.500000000000000e+00
	5.000000000000000e+00
	1.000000000000000e+01
	9.999999999999002e-13
	-2.541098841762901e-21
	-9.999999997489795e-04
	0.000000000000000e+00
	0.000000000000000e+00
	0.000000000000000e+00
37		3.028000000000002e-02
	2.500000000000000e+00
	2.500000000000000e+00
	5.000000000000000e+00
	1.000000000000000e+01
	9.999999999999002e-13
	-2.541098841762901e-21
	-9.999999997489795e-04
	0.000000000000000e+00
	0.000000000000000e+00
	0.000000000000000e+00
38		3.128000000000002e-02
	2.500000000000000e+00
	2.500000000000000e+00
	5.000000000000000e+00
	1.000000000000000e+01
	9.999999999999002e-13
	-2.541098841762901e-21
	-9.999999997489795e-04
	0.000000000000000e+00
	0.000000000000000e+00
	0.000000000000000e+00
39		3.228000000000002e-02
	2.500000000000000e+00
	2.500000000000000e+00
	5.000000000000000e+00
	1.000000000000000e+01
	9.999999999999002e-13
	-2.541098841762901e-21
	-9.999999997489795e-04
	0.000000000000000e+00
	0.000000000000000e+00
	0.000000000000000e+00
40		3.328000000000002e-02
	2.500000000000000e+00
	2.500000000000000e+00
	5.000000000000000e+00
	1.000000000000000e+01
	9.999999999999002e-13
	-2.541098841762901e-21
	-9.999999997489795e-04
	0.000000000000000e+00
	0.000000000000000e+00
	0.000000000000000e+00
41		3.428000000000002e-02
	2.500000000000000e+00
	2.500000000000000e+00
	5.000000000000000e+00
	1.000000000000000e+01
	9.999999999999002e-13
	-2.541098841762901e-21
	-9.999999997489795e-04
	0.000000000000000e+00
	0.000000000000000e+00
	0.000000000000000e+00
42		3.528000000000002e-02
	2.500000000000000e+00
	2.500000000000000e+00
	5.000000000000000e+00
	1.000000000000000e+01
	9.999999999999002e-13
	-2.541098841762901e-21
	-9.999999997489795e-04
	0.000000000000000e+00
	0.000000000000000e+00
	0.000000000000000e+00
43		3.628000000000002e-02
	2.500000000000000e+00
	2.500000000000000e+00
	5.000000000000000e+00
	1.000000000000000e+01
	9.999999999999002e-13
	-2.541098841762901e-21
	-9.999999997489795e-04
	0.000000000000000e+00
	0.000000000000000e+00
	0.000000000000000e+00
44		3.728000000000002e-02
	2.500000000000000e+00
	2.500000000000000e+00
	5.000000000000000e+00
	1.000000000000000e+01
	9.999999999999002e-13
	-2.541098841762901e-21
	-9.999999997489795e-04
	0.000000000000000e+00
	0.000000000000000e+00
	0.000000000000000e+00
45		3.828000000000002e-02
	2.500000000000000e+00
	2.500000000000000e+00
	5.000000000000000e+00
	1.000000000000000e+01
	9.999999999999002e-13
	-2.541098841762901e-21
	-9.999999997489795e-04
	0.000000000000000e+00
	0.000000000000000e+00
	0.000000000000000e+00
46		3.928000000000002e-02
	2.500000000000000e+00
	2.500000000000000e+00
	5.000000000000000e+00
	1.000000000000000e+01
	9.999999999999002e-13
	-2.541098841762901e-21
	-9.999999997489795e-04
	0.000000000000000e+00
	0.000000000000000e+00
	0.000000000000000e+00
47		4.028000000000002e-02
	2.500000000000000e+00
	2.500000000000000e+00
	5.000000000000000e+00
	1.000000000000000e+01
	9.999999999999002e-13
	-2.541098841762901e-21
	-9.999999997489795e-04
	0.000000000000000e+00
	0.000000000000000e+00
	0.000000000000000e+00
48		4.128000000000003e-02
	2.500000000000000e+00
	2.500000000000000e+00
	5.000000000000000e+00
	1.000000000000000e+01
	9.999999999999002e-13
	-2.541098841762901e-21
	-9.999999997489795e-04
	0.000000000000000e+00
	0.000000000000000e+00
	0.000000000000000e+00
49		4.228000000000003e-02
	2.500000000000000e+00
	2.500000000000000e+00
	5.000000000000000e+00
	1.000000000000000e+01
	9.999999999999002e-13
	-2.541098841762901e-21
	-9.999999997489795e-04
	0.000000000000000e+00
	0.000000000000000e+00
	0.000000000000000e+00
50		4.328000000000003e-02
	2.500000000000000e+00
	2.500000000000000e+00
	5.000000000000000e+00
	1.000000000000000e+01
	9.999999999999002e-13
	-2.541098841762901e-21
	-9.999999997489795e-04
	0.000000000000000e+00
	0.000000000000000e+00
	0.000000000000000e+00
51		4.428000000000003e-02
	2.500000000000000e+00
	2.500000000000000e+00
	5.000000000000000e+00
	1.000000000000000e+01
	9.999999999999002e-13
	-2.541098841762901e-21
	-9.999999997489795e-04
	0.000000000000000e+00
	0.000000000000000e+00
	0.000000000000000e+00
52		4.528000000000003e-02
	2.500000000000000e+00
	2.500000000000000e+00
	5.000000000000000e+00
	1.000000000000000e+01
	9.999999999999002e-13
	-2.541098841762901e-21
	-9.999999997489795e-04
	0.000000000000000e+00
	0.000000000000000e+00
	0.000000000000000e+00
53		4.628000000000003e-02
	2.500000000000000e+00
	2.500000000000000e+00
	5.000000000000000e+00
	1.000000000000000e+01
	9.999999999999002e-13
	-2.541098841762901e-21
	-9.999999997489795e-04
	0.000000000000000e+00
	0.000000000000000e+00
	0.000000000000000e+00
54		4.728000000000003e-02
	2.500000000000000e+00
	2.500000000000000e+00
	5.000000000000000e+00
	1.000000000000000e+01
	9.999999999999002e-13
	-2.541098841762901e-21
	-9.999999997489795e-04
	0.000000000000000e+00
	0.000000000000000e+00
	0.000000000000000e+00
55		4.828000000000003e-02
	2.500000000000000e+00
	2.500000000000000e+00
	5.000000000000000e+00
	1.000000000000000e+01
	9.999999999999002e-13
	-2.541098841762901e-21
	-9.999999997489795e-04
	0.000000000000000e+00
	0.000000000000000e+00
	0.000000000000000e+00
56		4.928000000000003e-02
	2.500000000000000e+00
	2.500000000000000e+00
	5.000000000000000e+00
	1.000000000000000e+01
	9.999999999999002e-13
	-2.541098841762901e-21
	-9.999999997489795e-04
	0.000000000000000e+00
	0.000000000000000e+00
	0.000000000000000e+00
57		5.028000000000003e-02
	2.500000000000000e+00
	2.500000000000000e+00
	5.000000000000000e+00
	1.000000000000000e+01
	9.999999999999002e-13
	-2.541098841762901e-21
	-9.999999997489795e-04
	0.000000000000000e+00
	0.000000000000000e+00
	0.000000000000000e+00
58		5.128000000000003e-02
	2.500000000000000e+00
	2.500000000000000e+00
	5.000000000000000e+00
	1.000000000000000e+01
	9.999999999999002e-13
	-2.541098841762901e-21
	-9.999999997489795e-04
	0.000000000000000e+00
	0.000000000000000e+00
	0.000000000000000e+00
59		5.228000000000003e-02
	2.500000000000000e+00
	2.500000000000000e+00
	5.000000000000000e+00
	1.000000000000000e+01
	9.999999999999002e-13
	-2.541098841762901e-21
	-9.999999997489795e-04
	0.000000000000000e+00
	0.000000000000000e+00
	0.000000000000000e+00
60		5.328000000000004e-02
	2.500000000000000e+00
	2.500000000000000e+00
	5.000000000000000e+00
	1.000000000000000e+01
	9.999999999999002e-13
	-2.541098841762901e-21
	-9.999999997489795e-04
	0.000000000000000e+00
	0.000000000000000e+00
	0.000000000000000e+00
61		5.428000000000004e-02
	2.500000000000000e+00
	2.500000000000000e+00
	5.000000000000000e+00
	1.000000000000000e+01
	9.999999999999002e-13
	-2.541098841762901e-21
	-9.999999997489795e-04
	0.000000000000000e+00
	0.000000000000000e+00
	0.000000000000000e+00
62		5.528000000000004e-02
	2.500000000000000e+00
	2.500000000000000e+00
	5.000000000000000e+00
	1.000000000000000e+01
	9.999999999999002e-13
	-2.541098841762901e-21
	-9.999999997489795e-04
	0.000000000000000e+00
	0.000000000000000e+00
	0.000000000000000e+00
63		5.628000000000004e-02
	2.500000000000000e+00
	2.500000000000000e+00
	5.000000000000000e+00
	1.000000000000000e+01
	9.999999999999002e-13
	-2.541098841762901e-21
	-9.999999997489795e-04
	0.000000000000000e+00
	0.000000000000000e+00
	0.000000000000000e+00
64		5.728000000000004e-02
	2.500000000000000e+00
	2.500000000000000e+00
	5.000000000000000e+00
	1.000000000000000e+01
	9.999999999999002e-13
	-2.541098841762901e-21
	-9.999999997489795e-04
	0.000000000000000e+00
	0.000000000000000e+00
	0.000000000000000e+00
65		5.828000000000004e-02
	2.500000000000000e+00
	2.500000000000000e+00
	5.000000000000000e+00
	1.000000000000000e+01
	9.999999999999002e-13
	-2.541098841762901e-21
	-9.999999997489795e-04
	0.000000000000000e+00
	0.000000000000000e+00
	0.000000000000000e+00
66		5.928000000000004e-02
	2.500000000000000e+00
	2.500000000000000e+00
	5.000000000000000e+00
	1.000000000000000e+01
	9.999999999999002e-13
	-2.541098841762901e-21
	-9.999999997489795e-04
	0.000000000000000e+00
	0.000000000000000e+00
	0.000000000000000e+00
67		6.028000000000004e-02
	2.500000000000000e+00
	2.500000000000000e+00
	5.000000000000000e+00
	1.000000000000000e+01
	9.999999999999002e-13
	-2.541098841762901e-21
	-9.999999997489795e-04
	0.000000000000000e+00
	0.000000000000000e+00
	0.000000000000000e+00
68		6.128000000000004e-02
	2.500000000000000e+00
	2.500000000000000e+00
	5.000000000000000e+00
	1.000000000000000e+01
	9.999999999999002e-13
	-2.541098841762901e-21
	-9.999999997489795e-04
	0.000000000000000e+00
	0.000000000000000e+00
	0.000000000000000e+00
69		6.228000000000004e-02
	2.500000000000000e+00
	2.500000000000000e+00
	5.000000000000000e+00
	1.000000000000000e+01
	9.999999999999002e-13
	-2.541098841762901e-21
	-9.999999997489795e-04
	0.000000000000000e+00
	0.000000000000000e+00
	0.000000000000000e+00
70		6.328000000000004e-02
	2.500000000000000e+00
	2.500000000000000e+00
	5.000000000000000e+00
	1.000000000000000e+01
	9.999999999999002e-13
	-2.541098841762901e-21
	-9.999999997489795e-04
	0.000000000000000e+00
	0.000000000000000e+00
	0.000000000000000e+00
71		6.428000000000005e-02
	2.500000000000000e+00
	2.500000000000000e+00
	5.000000000000000e+00
	1.000000000000000e+01
	9.999999999999002e-13
	-2.541098841762901e-21
	-9.999999997489795e-04
	0.000000000000000e+00
	0.000000000000000e+00
	0.000000000000000e+00
72		6.528000000000005e-02
	2.500000000000000e+00
	2.500000000000000e+00
	5.000000000000000e+00
	1.000000000000000e+01
	9.999999999999002e-13
	-2.541098841762901e-21
	-9.999999997489795e-04
	0.000000000000000e+00
	0.000000000000000e+00
	0.000000000000000e+00
73		6.628000000000005e-02
	2.500000000000000e+00
	2.500000000000000e+00
	5.000000000000000e+00
	1.000000000000000e+01
	9.999999999999002e-13
	-2.541098841762901e-21
	-9.999999997489795e-04
	0.000000000000000e+00
	0.000000000000000e+00
	0.000000000000000e+00
74		6.728000000000005e-02
	2.500000000000000e+00
	2.500000000000000e+00
	5.000000000000000e+00
	1.000000000000000e+01
	9.999999999999002e-13
	-2.541098841762901e-21
	-9.999999997489795e-04
	0.000000000000000e+00
	0.000000000000000e+00
	0.000000000000000e+00
75		6.828000000000005e-02
	2.500000000000000e+00
	2.500000000000000e+00
	5.000000000000000e+00
	1.000000000000000e+01
	9.999999999999002e-13
	-2.541098841762901e-21
	-9.999999997489795e-04
	0.000000000000000e+00
	0.000000000000000e+00
	0.000000000000000e+00
76		6.928000000000005e-02
	2.500000000000000e+00
